Circuit: * C:\Users\Gonzalo\Desktop\Gonzalo\GitHub\TProfesional_EEG\LTSpice_projects\Test INPUT EEG - Output DACs\Draft1.asc

Direct Newton iteration for .op point succeeded.
Semiconductor Device Operating Points:
                        --- Diodes ---
Name:    d:u1:1
Model:    u1:y
Id:     -2.64e-07
Vd:     -2.64e+00
Req:     1.00e-07
CAP:     0.00e+00

                        --- VDMOSFET Transistors ---
Name:        m:u1:1
Model:        u1:n
Id:          2.30e-01
Vgs:         1.26e+00
Vds:         2.64e+00
Vth:         1.25e+00
Gm:          6.78e+01
Gds:         0.00e+00
Cgs:         0.00e+00
Cgd:         0.00e+00
Cbody:       0.00e+00



Date: Sat May 21 18:24:17 2022
Total elapsed time: 0.047 seconds.

tnom = 27
temp = 27
method = trap
totiter = 13
traniter = 0
tranpoints = 0
accept = 0
rejected = 0
matrix size = 6
fillins = 0
solver = Normal
Matrix Compiler1: 244 bytes object code size
Matrix Compiler2: 434 bytes object code size
